
T1328 000:036 SEGGER J-Link V6.10i Log File (0000ms, 0015ms total)
T1328 000:036 DLL Compiled: Oct 25 2016 19:31:51 (0000ms, 0015ms total)
T1328 000:036 Logging started @ 2018-09-11 22:19 (0000ms, 0015ms total)
T1328 000:036 JLINK_SetWarnOutHandler(...) (0000ms, 0015ms total)
T1328 000:036 JLINK_OpenEx(...)
Firmware: J-Link ARM-OB STM32 compiled Aug 22 2012 19:52:04
Hardware: V7.00
S/N: 305760245
Feature(s): RDI,FlashDL,FlashBP,JFlash,GDBFullWEBSRV Webserver running on local port 19080 (0007ms, 0022ms total)
T1328 000:036   returns O.K. (0007ms, 0022ms total)
T1328 000:043 JLINK_SetErrorOutHandler(...) (0000ms, 0022ms total)
T1328 000:043 JLINK_ExecCommand("ProjectFile = "C:\Users\º£À«Ìì¿Õ\Desktop\Action\code_github\LURC2018\MDK-ARM\JLinkSettings.ini"", ...).   returns 0x00 (0109ms, 0131ms total)
T1328 000:153 JLINK_ExecCommand("Device = STM32F407VETx", ...). Device "STM32F407VE" selected.  returns 0x00 (0000ms, 0131ms total)
T1328 000:153 JLINK_ExecCommand("DisableConnectionTimeout", ...).   returns 0x01 (0000ms, 0131ms total)
T1328 000:153 JLINK_GetHardwareVersion()  returns 0x11170 (0000ms, 0131ms total)
T1328 000:153 JLINK_GetDLLVersion()  returns 61009 (0000ms, 0131ms total)
T1328 000:154 JLINK_GetFirmwareString(...) (0000ms, 0132ms total)
T1328 000:154 JLINK_GetDLLVersion()  returns 61009 (0001ms, 0133ms total)
T1328 000:155 JLINK_GetCompileDateTime() (0000ms, 0133ms total)
T1328 000:155 JLINK_GetFirmwareString(...) (0000ms, 0133ms total)
T1328 000:155 JLINK_GetHardwareVersion()  returns 0x11170 (0000ms, 0133ms total)
T1328 000:155 JLINK_TIF_Select(JLINKARM_TIF_SWD)  returns 0x00 (0000ms, 0133ms total)
T1328 000:155 JLINK_SetSpeed(5000) (0000ms, 0133ms total)
T1328 000:155 JLINK_GetId() >0x108 TIF>Found SWD-DP with ID 0x2BA01477 >0x0D TIF> >0x28 TIF> >0x0D TIF> >0x28 TIF> >0x0D TIF> >0x28 TIF> >0x0D TIF> >0x28 TIF> >0x0D TIF> >0x21 TIF> >0x0D TIF> >0x28 TIF> >0x0D TIF> >0x28 TIF> >0x0D TIF> >0x28 TIF> >0x0D TIF> >0x21 TIF> >0x0D TIF> >0x21 TIF> >0x0D TIF> >0x28 TIF> >0x0D TIF> >0x21 TIF> >0x0D TIF> >0x21 TIF> >0x0D TIF> >0x28 TIF> >0x0D TIF> >0x28 TIF> >0x0D TIF> >0x28 TIF> >0x0D TIF> >0x21 TIF> >0x0D TIF> >0x21 TIF> >0x0D TIF> >0x28 TIF> >0x0D TIF>
 >0x28 TIF> >0x0D TIF> >0x28 TIF> >0x0D TIF> >0x21 TIF> >0x0D TIF> >0x21 TIF> >0x0D TIF> >0x28 TIF> >0x0D TIF> >0x21 TIF> >0x0D TIF> >0x21 TIF> >0x0D TIF> >0x28 TIF> >0x0D TIF> >0x21 TIF> >0x0D TIF> >0x21 TIF> >0x108 TIF>Found SWD-DP with ID 0x2BA01477 >0x0D TIF> >0x28 TIF> >0x0D TIF> >0x28 TIF> >0x0D TIF> >0x28 TIF> >0x0D TIF> >0x28 TIF> >0x0D TIF> >0x21 TIF> >0x0D TIF> >0x28 TIF> >0x0D TIF> >0x28 TIF> >0x0D TIF> >0x21 TIF> >0x0D TIF> >0x21 TIF> >0x0D TIF> >0x21 TIF>AP-IDR: 0x24770011, Type: AHB-AP
 >0x0D TIF> >0x28 TIF> >0x0D TIF> >0x28 TIF> >0x0D TIF> >0x28 TIF> >0x0D TIF> >0x21 TIF> >0x0D TIF> >0x21 TIF> >0x0D TIF> >0x28 TIF> >0x0D TIF> >0x21 TIF> >0x0D TIF> >0x21 TIF>Found Cortex-M4 r0p1, Little endian. -- CPU_ReadMem(4 bytes @ 0xE000EDF0) -- CPU_WriteMem(4 bytes @ 0xE000EDF0) -- CPU_ReadMem(4 bytes @ 0xE0002000)FPUnit: 6 code (BP) slots and 2 literal slots -- CPU_ReadMem(4 bytes @ 0xE000EDFC) -- CPU_WriteMem(4 bytes @ 0xE000EDFC) -- CPU_ReadMem(4 bytes @ 0xE0001000)
 -- CPU_WriteMem(4 bytes @ 0xE0001000) -- CPU_ReadMem(4 bytes @ 0xE000ED88) -- CPU_WriteMem(4 bytes @ 0xE000ED88) -- CPU_ReadMem(4 bytes @ 0xE000ED88) -- CPU_WriteMem(4 bytes @ 0xE000ED88)CoreSight components:ROMTbl 0 @ E00FF000 -- CPU_ReadMem(16 bytes @ 0xE00FF000) -- CPU_ReadMem(16 bytes @ 0xE000EFF0) -- CPU_ReadMem(16 bytes @ 0xE000EFE0)ROMTbl 0 [0]: FFF0F000, CID: B105E00D, PID: 000BB00C SCS -- CPU_ReadMem(16 bytes @ 0xE0001FF0) -- CPU_ReadMem(16 bytes @ 0xE0001FE0)
ROMTbl 0 [1]: FFF02000, CID: B105E00D, PID: 003BB002 DWT -- CPU_ReadMem(16 bytes @ 0xE0002FF0) -- CPU_ReadMem(16 bytes @ 0xE0002FE0)ROMTbl 0 [2]: FFF03000, CID: B105E00D, PID: 002BB003 FPB -- CPU_ReadMem(16 bytes @ 0xE0000FF0) -- CPU_ReadMem(16 bytes @ 0xE0000FE0)ROMTbl 0 [3]: FFF01000, CID: B105E00D, PID: 003BB001 ITM -- CPU_ReadMem(16 bytes @ 0xE00FF010) -- CPU_ReadMem(16 bytes @ 0xE0040FF0) -- CPU_ReadMem(16 bytes @ 0xE0040FE0)ROMTbl 0 [4]: FFF41000, CID: B105900D, PID: 000BB9A1 TPIU
 -- CPU_ReadMem(16 bytes @ 0xE0041FF0) -- CPU_ReadMem(16 bytes @ 0xE0041FE0)ROMTbl 0 [5]: FFF42000, CID: B105900D, PID: 000BB925 ETM >0x0D TIF> >0x21 TIF>  returns 0x2BA01477 (0030ms, 0163ms total)
T1328 000:185 JLINK_GetDLLVersion()  returns 61009 (0000ms, 0163ms total)
T1328 000:185 JLINK_CORE_GetFound()  returns 0xE0000FF (0000ms, 0163ms total)
T1328 000:185 JLINK_GetDebugInfo(0x100) -- Value=0xE00FF000  returns 0x00 (0000ms, 0163ms total)
T1328 000:185 JLINK_GetDebugInfo(0x100) -- Value=0xE00FF000  returns 0x00 (0000ms, 0163ms total)
T1328 000:185 JLINK_GetDebugInfo(0x101) -- Value=0xE0041000  returns 0x00 (0000ms, 0163ms total)
T1328 000:185 JLINK_GetDebugInfo(0x102) -- Value=0x00000000  returns 0x00 (0000ms, 0163ms total)
T1328 000:185 JLINK_GetDebugInfo(0x103) -- Value=0xE0040000  returns 0x00 (0000ms, 0163ms total)
T1328 000:185 JLINK_GetDebugInfo(0x104) -- Value=0xE0000000  returns 0x00 (0000ms, 0163ms total)
T1328 000:185 JLINK_GetDebugInfo(0x105) -- Value=0xE0001000  returns 0x00 (0000ms, 0163ms total)
T1328 000:185 JLINK_GetDebugInfo(0x106) -- Value=0xE0002000  returns 0x00 (0000ms, 0163ms total)
T1328 000:185 JLINK_GetDebugInfo(0x107) -- Value=0xE000E000  returns 0x00 (0000ms, 0163ms total)
T1328 000:185 JLINK_GetDebugInfo(0x10C) -- Value=0xE000EDF0  returns 0x00 (0000ms, 0163ms total)
T1328 000:185 JLINK_ReadMemU32(0xE000EF40, 0x0001 Items, ...) -- CPU is running -- CPU_ReadMem(4 bytes @ 0xE000EF40) - Data: 21 00 11 10  returns 0x01 (0001ms, 0164ms total)
T1328 000:186 JLINK_ReadMemU32(0xE000EF44, 0x0001 Items, ...) -- CPU is running -- CPU_ReadMem(4 bytes @ 0xE000EF44) - Data: 11 00 00 11  returns 0x01 (0000ms, 0164ms total)
T1328 000:186 JLINK_ReadMemU32(0xE000ED00, 0x0001 Items, ...) -- CPU is running -- CPU_ReadMem(4 bytes @ 0xE000ED00) - Data: 41 C2 0F 41  returns 0x01 (0001ms, 0165ms total)
T1328 000:187 JLINK_SetResetType(JLINKARM_RESET_TYPE_NORMAL)  returns JLINKARM_RESET_TYPE_NORMAL (0000ms, 0165ms total)
T1328 000:187 JLINK_Reset() -- CPU is running -- CPU_WriteMem(4 bytes @ 0xE000EDF0) -- CPU is running -- CPU_WriteMem(4 bytes @ 0xE000EDFC) >0x35 TIF> -- CPU is running -- CPU_WriteMem(4 bytes @ 0xE000ED0C) -- CPU is running -- CPU_ReadMem(4 bytes @ 0xE000EDF0) -- CPU is running -- CPU_ReadMem(4 bytes @ 0xE000EDF0) -- CPU is running -- CPU_WriteMem(4 bytes @ 0xE000EDF0) -- CPU is running -- CPU_WriteMem(4 bytes @ 0xE000EDFC) -- CPU is running -- CPU_ReadMem(4 bytes @ 0xE000EDF0)
 -- CPU_WriteMem(4 bytes @ 0xE0002000) -- CPU_ReadMem(4 bytes @ 0xE000EDFC) -- CPU_ReadMem(4 bytes @ 0xE0001000) (0016ms, 0181ms total)
T1328 000:203 JLINK_ReadReg(R15 (PC))  returns 0x08006F88 (0000ms, 0181ms total)
T1328 000:203 JLINK_ReadReg(XPSR)  returns 0x01000000 (0000ms, 0181ms total)
T1328 000:203 JLINK_Halt()  returns 0x00 (0000ms, 0181ms total)
T1328 000:203 JLINK_IsHalted()  returns TRUE (0000ms, 0181ms total)
T1328 000:203 JLINK_ReadMemU32(0xE000EDF0, 0x0001 Items, ...) -- CPU_ReadMem(4 bytes @ 0xE000EDF0) - Data: 03 00 03 00  returns 0x01 (0001ms, 0182ms total)
T1328 000:204 JLINK_WriteU32(0xE000EDF0, 0xA05F0003) -- CPU_WriteMem(4 bytes @ 0xE000EDF0)  returns 0x00 (0000ms, 0182ms total)
T1328 000:204 JLINK_WriteU32(0xE000EDFC, 0x01000000) -- CPU_WriteMem(4 bytes @ 0xE000EDFC)  returns 0x00 (0001ms, 0183ms total)
T1328 000:205 JLINK_GetHWStatus(...)  returns 0x00 (0000ms, 0183ms total)
T1328 000:205 JLINK_GetNumBPUnits(Type = 0xFFFFFF00)  returns 0x06 (0000ms, 0183ms total)
T1328 000:205 JLINK_GetNumBPUnits(Type = 0xF0)  returns 0x2000 (0000ms, 0183ms total)
T1328 000:205 JLINK_GetNumWPUnits()  returns 0x04 (0000ms, 0183ms total)
T1328 000:205 JLINK_GetSpeed()  returns 0xFA0 (0000ms, 0183ms total)
T1328 000:205 JLINK_ReadMemU32(0xE000E004, 0x0001 Items, ...) -- CPU_ReadMem(4 bytes @ 0xE000E004) - Data: 02 00 00 00  returns 0x01 (0000ms, 0183ms total)
T1328 000:205 JLINK_ReadMemU32(0xE000E004, 0x0001 Items, ...) -- CPU_ReadMem(4 bytes @ 0xE000E004) - Data: 02 00 00 00  returns 0x01 (0001ms, 0184ms total)
T1328 000:206 JLINK_WriteMem(0xE0001000, 0x001C Bytes, ...) - Data: 01 00 00 00 00 00 00 00 00 00 00 00 00 00 00 00 ... -- CPU_WriteMem(28 bytes @ 0xE0001000)  returns 0x1C (0001ms, 0185ms total)
T1328 000:207 JLINK_ReadMem (0xE0001000, 0x001C Bytes, ...) -- CPU_ReadMem(28 bytes @ 0xE0001000) - Data: 01 00 00 40 00 00 00 00 00 00 00 00 00 00 00 00 ...  returns 0x00 (0001ms, 0186ms total)
T1328 000:208 JLINK_ReadReg(R15 (PC))  returns 0x08006F88 (0000ms, 0186ms total)
T1328 000:208 JLINK_ReadReg(XPSR)  returns 0x01000000 (0000ms, 0186ms total)
T1328 000:305 JLINK_SetResetType(JLINKARM_RESET_TYPE_NORMAL)  returns JLINKARM_RESET_TYPE_NORMAL (0000ms, 0186ms total)
T1328 000:305 JLINK_Reset() -- CPU_WriteMem(4 bytes @ 0xE000EDF0) -- CPU_WriteMem(4 bytes @ 0xE000EDFC) >0x35 TIF> -- CPU_WriteMem(4 bytes @ 0xE000ED0C) -- CPU_ReadMem(4 bytes @ 0xE000EDF0) -- CPU_ReadMem(4 bytes @ 0xE000EDF0) -- CPU_WriteMem(4 bytes @ 0xE000EDF0) -- CPU_WriteMem(4 bytes @ 0xE000EDFC) -- CPU is running -- CPU_ReadMem(4 bytes @ 0xE000EDF0) -- CPU_WriteMem(4 bytes @ 0xE0002000) -- CPU_ReadMem(4 bytes @ 0xE000EDFC) -- CPU_ReadMem(4 bytes @ 0xE0001000) (0016ms, 0202ms total)
T1328 000:321 JLINK_ReadReg(R15 (PC))  returns 0x08006F88 (0000ms, 0202ms total)
T1328 000:321 JLINK_ReadReg(XPSR)  returns 0x01000000 (0000ms, 0202ms total)
T1328 000:326 JLINK_ReadMem (0x08006F88, 0x003C Bytes, ...) -- CPU_ReadMem(128 bytes @ 0x08006F80) -- Updating C cache (128 bytes @ 0x08006F80) -- Read from C cache (60 bytes @ 0x08006F88) - Data: 0C 48 01 68 41 F4 70 01 01 60 0B 48 80 47 0B 48 ...  returns 0x00 (0002ms, 0204ms total)
T1328 001:440 JLINK_ReadMem (0x2000002D, 0x0001 Bytes, ...) -- CPU_ReadMem(64 bytes @ 0x20000000) -- Updating C cache (64 bytes @ 0x20000000) -- Read from C cache (1 bytes @ 0x2000002D) - Data: 02  returns 0x00 (0001ms, 0205ms total)
T1888 001:656 JLINK_SetBPEx(Addr = 0x08000250, Type = 0xFFFFFFF2)  returns 0x00000001 (0000ms, 0205ms total)
T1888 001:656 JLINK_SetBPEx(Addr = 0x08004D52, Type = 0xFFFFFFF2)  returns 0x00000002 (0000ms, 0205ms total)
T1888 001:656 JLINK_Go() -- CPU_WriteMem(4 bytes @ 0xE0002000) -- CPU_WriteMem(4 bytes @ 0xE0002000) -- CPU_ReadMem(4 bytes @ 0xE0001000) -- CPU_WriteMem(4 bytes @ 0xE0002008) -- CPU_WriteMem(4 bytes @ 0xE000200C) -- CPU_WriteMem(4 bytes @ 0xE0002010) -- CPU_WriteMem(4 bytes @ 0xE0002014) -- CPU_WriteMem(4 bytes @ 0xE0002018) -- CPU_WriteMem(4 bytes @ 0xE000201C) -- CPU_WriteMem(4 bytes @ 0xE0001004) (0005ms, 0210ms total)
T1888 001:762 JLINK_IsHalted()  returns TRUE (0002ms, 0212ms total)
T1888 001:765 JLINK_Halt()  returns 0x00 (0000ms, 0210ms total)
T1888 001:765 JLINK_IsHalted()  returns TRUE (0000ms, 0210ms total)
T1888 001:765 JLINK_IsHalted()  returns TRUE (0000ms, 0210ms total)
T1888 001:765 JLINK_IsHalted()  returns TRUE (0000ms, 0210ms total)
T1888 001:765 JLINK_ReadReg(R15 (PC))  returns 0x08000250 (0000ms, 0210ms total)
T1888 001:765 JLINK_ReadReg(XPSR)  returns 0x21000000 (0000ms, 0210ms total)
T1888 001:765 JLINK_ClrBPEx(BPHandle = 0x00000001)  returns 0x00 (0000ms, 0210ms total)
T1888 001:765 JLINK_ClrBPEx(BPHandle = 0x00000002)  returns 0x00 (0000ms, 0210ms total)
T1888 001:765 JLINK_ReadMemU32(0xE000ED30, 0x0001 Items, ...) -- CPU_ReadMem(4 bytes @ 0xE000ED30) - Data: 03 00 00 00  returns 0x01 (0000ms, 0210ms total)
T1888 001:765 JLINK_ReadMemU32(0xE0001028, 0x0001 Items, ...) -- CPU_ReadMem(4 bytes @ 0xE0001028) - Data: 00 00 00 00  returns 0x01 (0000ms, 0210ms total)
T1888 001:765 JLINK_ReadMemU32(0xE0001038, 0x0001 Items, ...) -- CPU_ReadMem(4 bytes @ 0xE0001038) - Data: 00 02 00 00  returns 0x01 (0000ms, 0210ms total)
T1888 001:765 JLINK_ReadMemU32(0xE0001048, 0x0001 Items, ...) -- CPU_ReadMem(4 bytes @ 0xE0001048) - Data: 00 00 00 00  returns 0x01 (0002ms, 0212ms total)
T1888 001:767 JLINK_ReadMemU32(0xE0001058, 0x0001 Items, ...) -- CPU_ReadMem(4 bytes @ 0xE0001058) - Data: 00 00 00 00  returns 0x01 (0000ms, 0212ms total)
T1888 001:767 JLINK_ReadReg(R0)  returns 0x20008038 (0000ms, 0212ms total)
T1888 001:767 JLINK_ReadReg(R1)  returns 0x20008238 (0000ms, 0212ms total)
T1888 001:767 JLINK_ReadReg(R2)  returns 0x20008238 (0000ms, 0212ms total)
T1888 001:767 JLINK_ReadReg(R3)  returns 0x20008238 (0000ms, 0212ms total)
T1888 001:767 JLINK_ReadReg(R4)  returns 0x00000000 (0000ms, 0212ms total)
T1888 001:767 JLINK_ReadReg(R5)  returns 0x20007FD4 (0000ms, 0212ms total)
T1888 001:767 JLINK_ReadReg(R6)  returns 0x00000000 (0000ms, 0212ms total)
T1888 001:767 JLINK_ReadReg(R7)  returns 0x00000000 (0000ms, 0212ms total)
T1888 001:767 JLINK_ReadReg(R8)  returns 0x00000000 (0000ms, 0212ms total)
T1888 001:767 JLINK_ReadReg(R9)  returns 0x00000000 (0000ms, 0212ms total)
T1888 001:767 JLINK_ReadReg(R10)  returns 0x0800F430 (0000ms, 0212ms total)
T1888 001:767 JLINK_ReadReg(R11)  returns 0x00000000 (0000ms, 0212ms total)
T1888 001:767 JLINK_ReadReg(R12)  returns 0x20008014 (0000ms, 0212ms total)
T1888 001:767 JLINK_ReadReg(R13 (SP))  returns 0x20008638 (0000ms, 0212ms total)
T1888 001:767 JLINK_ReadReg(R14)  returns 0x08000217 (0000ms, 0212ms total)
T1888 001:767 JLINK_ReadReg(R15 (PC))  returns 0x08000250 (0000ms, 0212ms total)
T1888 001:767 JLINK_ReadReg(XPSR)  returns 0x21000000 (0000ms, 0212ms total)
T1888 001:767 JLINK_ReadReg(MSP)  returns 0x20008638 (0000ms, 0212ms total)
T1888 001:767 JLINK_ReadReg(PSP)  returns 0x00000000 (0000ms, 0212ms total)
T1888 001:767 JLINK_ReadReg(CFBP)  returns 0x04000000 (0000ms, 0212ms total)
T1888 001:767 JLINK_ReadReg(FPSCR)  returns 0x03000000 (0005ms, 0217ms total)
T1888 001:772 JLINK_ReadReg(FPS0)  returns 0x00000000 (0000ms, 0217ms total)
T1888 001:772 JLINK_ReadReg(FPS1)  returns 0x00000000 (0000ms, 0217ms total)
T1888 001:772 JLINK_ReadReg(FPS2)  returns 0x00000000 (0000ms, 0217ms total)
T1888 001:772 JLINK_ReadReg(FPS3)  returns 0x00000000 (0000ms, 0217ms total)
T1888 001:772 JLINK_ReadReg(FPS4)  returns 0x00000000 (0000ms, 0217ms total)
T1888 001:772 JLINK_ReadReg(FPS5)  returns 0x00000000 (0000ms, 0217ms total)
T1888 001:772 JLINK_ReadReg(FPS6)  returns 0x00000000 (0000ms, 0217ms total)
T1888 001:772 JLINK_ReadReg(FPS7)  returns 0x00000000 (0000ms, 0217ms total)
T1888 001:772 JLINK_ReadReg(FPS8)  returns 0x00000000 (0000ms, 0217ms total)
T1888 001:772 JLINK_ReadReg(FPS9)  returns 0x00000000 (0000ms, 0217ms total)
T1888 001:772 JLINK_ReadReg(FPS10)  returns 0x00000000 (0000ms, 0217ms total)
T1888 001:772 JLINK_ReadReg(FPS11)  returns 0x00000000 (0000ms, 0217ms total)
T1888 001:772 JLINK_ReadReg(FPS12)  returns 0x00000000 (0000ms, 0217ms total)
T1888 001:772 JLINK_ReadReg(FPS13)  returns 0x00000000 (0000ms, 0217ms total)
T1888 001:772 JLINK_ReadReg(FPS14)  returns 0x00000000 (0000ms, 0217ms total)
T1888 001:772 JLINK_ReadReg(FPS15)  returns 0x00000000 (0000ms, 0217ms total)
T1888 001:772 JLINK_ReadReg(FPS16)  returns 0x00000000 (0000ms, 0217ms total)
T1888 001:772 JLINK_ReadReg(FPS17)  returns 0x00000000 (0000ms, 0217ms total)
T1888 001:772 JLINK_ReadReg(FPS18)  returns 0x00000000 (0000ms, 0217ms total)
T1888 001:772 JLINK_ReadReg(FPS19)  returns 0x00000000 (0000ms, 0217ms total)
T1888 001:772 JLINK_ReadReg(FPS20)  returns 0x00000000 (0000ms, 0217ms total)
T1888 001:772 JLINK_ReadReg(FPS21)  returns 0x00000000 (0000ms, 0217ms total)
T1888 001:772 JLINK_ReadReg(FPS22)  returns 0x00000000 (0001ms, 0218ms total)
T1888 001:773 JLINK_ReadReg(FPS23)  returns 0x00000000 (0000ms, 0218ms total)
T1888 001:773 JLINK_ReadReg(FPS24)  returns 0x00000000 (0000ms, 0218ms total)
T1888 001:773 JLINK_ReadReg(FPS25)  returns 0x00000000 (0000ms, 0218ms total)
T1888 001:773 JLINK_ReadReg(FPS26)  returns 0x00000000 (0000ms, 0218ms total)
T1888 001:773 JLINK_ReadReg(FPS27)  returns 0x00000000 (0000ms, 0218ms total)
T1888 001:773 JLINK_ReadReg(FPS28)  returns 0x00000000 (0000ms, 0218ms total)
T1888 001:773 JLINK_ReadReg(FPS29)  returns 0x00000000 (0000ms, 0218ms total)
T1888 001:773 JLINK_ReadReg(FPS30)  returns 0x00000000 (0000ms, 0218ms total)
T1888 001:773 JLINK_ReadReg(FPS31)  returns 0x00000000 (0000ms, 0218ms total)
T1328 001:778 JLINK_ReadMemU32(0xE0001004, 0x0001 Items, ...) -- CPU_ReadMem(4 bytes @ 0xE0001004) - Data: 0B 6D 00 00  returns 0x01 (0001ms, 0219ms total)
T1328 001:782 JLINK_ReadMem (0x2000002D, 0x0001 Bytes, ...) -- CPU_ReadMem(64 bytes @ 0x20000000) -- Updating C cache (64 bytes @ 0x20000000) -- Read from C cache (1 bytes @ 0x2000002D) - Data: 00  returns 0x00 (0001ms, 0220ms total)
T1328 001:789 JLINK_ReadMem (0x08000250, 0x003C Bytes, ...) -- CPU_ReadMem(128 bytes @ 0x08000240) -- Updating C cache (128 bytes @ 0x08000240) -- Read from C cache (60 bytes @ 0x08000250) - Data: 10 B5 86 B0 00 BF 07 F0 6B F8 07 F0 E6 FC 03 20 ...  returns 0x00 (0001ms, 0221ms total)
T1888 020:776 JLINK_SetBPEx(Addr = 0x08004D52, Type = 0xFFFFFFF2)  returns 0x00000003 (0000ms, 0221ms total)
T1888 020:776 JLINK_SetBPEx(Addr = 0x0800045A, Type = 0xFFFFFFF2)  returns 0x00000004 (0000ms, 0221ms total)
T1888 020:776 JLINK_Go() -- CPU_WriteMem(4 bytes @ 0xE0002000) -- CPU_WriteMem(4 bytes @ 0xE0002000) -- CPU_ReadMem(4 bytes @ 0xE0001000) -- CPU_WriteMem(4 bytes @ 0xE0002008) -- CPU_WriteMem(4 bytes @ 0xE000200C) (0003ms, 0224ms total)
T1888 020:880 JLINK_IsHalted()  returns FALSE (0000ms, 0224ms total)
T1888 020:981 JLINK_IsHalted()  returns FALSE (0000ms, 0224ms total)
T1888 021:082 JLINK_IsHalted()  returns FALSE (0000ms, 0224ms total)
T1888 021:183 JLINK_IsHalted()  returns FALSE (0000ms, 0224ms total)
T1888 021:284 JLINK_IsHalted()  returns FALSE (0000ms, 0224ms total)
T1888 021:385 JLINK_IsHalted()  returns FALSE (0000ms, 0224ms total)
T1888 021:486 JLINK_IsHalted()  returns FALSE (0000ms, 0224ms total)
T1888 021:586 JLINK_IsHalted()  returns FALSE (0000ms, 0224ms total)
T1888 021:688 JLINK_IsHalted()  returns FALSE (0000ms, 0224ms total)
T1888 021:789 JLINK_IsHalted()  returns FALSE (0000ms, 0224ms total)
T1888 021:890 JLINK_IsHalted()  returns FALSE (0000ms, 0224ms total)
T1888 021:990 JLINK_IsHalted()  returns FALSE (0000ms, 0224ms total)
T1888 022:091 JLINK_IsHalted()  returns FALSE (0000ms, 0224ms total)
T1888 022:192 JLINK_IsHalted()  returns FALSE (0000ms, 0224ms total)
T1888 022:293 JLINK_IsHalted()  returns FALSE (0000ms, 0224ms total)
T1888 022:393 JLINK_IsHalted()  returns FALSE (0001ms, 0225ms total)
T1888 022:494 JLINK_IsHalted()  returns FALSE (0000ms, 0224ms total)
T1888 022:595 JLINK_IsHalted()  returns FALSE (0000ms, 0224ms total)
T1888 022:696 JLINK_IsHalted()  returns FALSE (0000ms, 0224ms total)
T1888 022:796 JLINK_IsHalted()  returns FALSE (0000ms, 0224ms total)
T1888 022:898 JLINK_IsHalted()  returns FALSE (0000ms, 0224ms total)
T1888 022:998 JLINK_IsHalted()  returns TRUE (0003ms, 0227ms total)
T1888 023:001 JLINK_Halt()  returns 0x00 (0000ms, 0224ms total)
T1888 023:001 JLINK_IsHalted()  returns TRUE (0000ms, 0224ms total)
T1888 023:001 JLINK_IsHalted()  returns TRUE (0000ms, 0224ms total)
T1888 023:001 JLINK_IsHalted()  returns TRUE (0000ms, 0224ms total)
T1888 023:001 JLINK_ReadReg(R15 (PC))  returns 0x0800045A (0000ms, 0224ms total)
T1888 023:001 JLINK_ReadReg(XPSR)  returns 0x61000000 (0000ms, 0224ms total)
T1888 023:001 JLINK_ClrBPEx(BPHandle = 0x00000003)  returns 0x00 (0000ms, 0224ms total)
T1888 023:001 JLINK_ClrBPEx(BPHandle = 0x00000004)  returns 0x00 (0000ms, 0224ms total)
T1888 023:001 JLINK_ReadMemU32(0xE000ED30, 0x0001 Items, ...) -- CPU_ReadMem(4 bytes @ 0xE000ED30) - Data: 03 00 00 00  returns 0x01 (0001ms, 0225ms total)
T1888 023:002 JLINK_ReadMemU32(0xE0001028, 0x0001 Items, ...) -- CPU_ReadMem(4 bytes @ 0xE0001028) - Data: 00 00 00 00  returns 0x01 (0000ms, 0225ms total)
T1888 023:002 JLINK_ReadMemU32(0xE0001038, 0x0001 Items, ...) -- CPU_ReadMem(4 bytes @ 0xE0001038) - Data: 00 02 00 00  returns 0x01 (0001ms, 0226ms total)
T1888 023:003 JLINK_ReadMemU32(0xE0001048, 0x0001 Items, ...) -- CPU_ReadMem(4 bytes @ 0xE0001048) - Data: 00 00 00 00  returns 0x01 (0000ms, 0226ms total)
T1888 023:003 JLINK_ReadMemU32(0xE0001058, 0x0001 Items, ...) -- CPU_ReadMem(4 bytes @ 0xE0001058) - Data: 00 00 00 00  returns 0x01 (0000ms, 0226ms total)
T1888 023:003 JLINK_ReadReg(R0)  returns 0x00000001 (0000ms, 0226ms total)
T1888 023:003 JLINK_ReadReg(R1)  returns 0x00000000 (0000ms, 0226ms total)
T1888 023:003 JLINK_ReadReg(R2)  returns 0x40006800 (0000ms, 0226ms total)
T1888 023:003 JLINK_ReadReg(R3)  returns 0x00000001 (0000ms, 0226ms total)
T1888 023:003 JLINK_ReadReg(R4)  returns 0x00000000 (0000ms, 0226ms total)
T1888 023:003 JLINK_ReadReg(R5)  returns 0x00000000 (0000ms, 0226ms total)
T1888 023:003 JLINK_ReadReg(R6)  returns 0x06060606 (0000ms, 0226ms total)
T1888 023:003 JLINK_ReadReg(R7)  returns 0x07070707 (0000ms, 0226ms total)
T1888 023:003 JLINK_ReadReg(R8)  returns 0x08080808 (0000ms, 0226ms total)
T1888 023:003 JLINK_ReadReg(R9)  returns 0x09090909 (0000ms, 0226ms total)
T1888 023:003 JLINK_ReadReg(R10)  returns 0x10101010 (0000ms, 0226ms total)
T1888 023:003 JLINK_ReadReg(R11)  returns 0x11111111 (0000ms, 0226ms total)
T1888 023:003 JLINK_ReadReg(R12)  returns 0x00000150 (0000ms, 0226ms total)
T1888 023:003 JLINK_ReadReg(R13 (SP))  returns 0x200018E0 (0000ms, 0226ms total)
T1888 023:003 JLINK_ReadReg(R14)  returns 0x08001E53 (0000ms, 0226ms total)
T1888 023:003 JLINK_ReadReg(R15 (PC))  returns 0x0800045A (0000ms, 0226ms total)
T1888 023:003 JLINK_ReadReg(XPSR)  returns 0x61000000 (0000ms, 0226ms total)
T1888 023:003 JLINK_ReadReg(MSP)  returns 0x200085A8 (0000ms, 0226ms total)
T1888 023:003 JLINK_ReadReg(PSP)  returns 0x200018E0 (0000ms, 0226ms total)
T1888 023:003 JLINK_ReadReg(CFBP)  returns 0x06000000 (0000ms, 0226ms total)
T1888 023:003 JLINK_ReadReg(FPSCR)  returns 0x00000000 (0005ms, 0231ms total)
T1888 023:008 JLINK_ReadReg(FPS0)  returns 0x00000000 (0000ms, 0231ms total)
T1888 023:008 JLINK_ReadReg(FPS1)  returns 0x01010101 (0000ms, 0231ms total)
T1888 023:008 JLINK_ReadReg(FPS2)  returns 0x02020202 (0000ms, 0231ms total)
T1888 023:008 JLINK_ReadReg(FPS3)  returns 0x03030303 (0000ms, 0231ms total)
T1888 023:008 JLINK_ReadReg(FPS4)  returns 0x04040404 (0000ms, 0231ms total)
T1888 023:008 JLINK_ReadReg(FPS5)  returns 0x05050505 (0000ms, 0231ms total)
T1888 023:008 JLINK_ReadReg(FPS6)  returns 0x06060606 (0000ms, 0231ms total)
T1888 023:008 JLINK_ReadReg(FPS7)  returns 0x07070707 (0000ms, 0231ms total)
T1888 023:008 JLINK_ReadReg(FPS8)  returns 0x08080808 (0000ms, 0231ms total)
T1888 023:008 JLINK_ReadReg(FPS9)  returns 0x09090909 (0000ms, 0231ms total)
T1888 023:008 JLINK_ReadReg(FPS10)  returns 0x10101010 (0000ms, 0231ms total)
T1888 023:008 JLINK_ReadReg(FPS11)  returns 0x11111111 (0000ms, 0231ms total)
T1888 023:008 JLINK_ReadReg(FPS12)  returns 0x12121212 (0000ms, 0231ms total)
T1888 023:008 JLINK_ReadReg(FPS13)  returns 0x13131313 (0000ms, 0231ms total)
T1888 023:008 JLINK_ReadReg(FPS14)  returns 0x14141414 (0000ms, 0231ms total)
T1888 023:008 JLINK_ReadReg(FPS15)  returns 0x15151515 (0000ms, 0231ms total)
T1888 023:008 JLINK_ReadReg(FPS16)  returns 0x16161616 (0001ms, 0232ms total)
T1888 023:009 JLINK_ReadReg(FPS17)  returns 0x17171717 (0000ms, 0232ms total)
T1888 023:009 JLINK_ReadReg(FPS18)  returns 0x18181818 (0000ms, 0232ms total)
T1888 023:009 JLINK_ReadReg(FPS19)  returns 0x19191919 (0000ms, 0232ms total)
T1888 023:009 JLINK_ReadReg(FPS20)  returns 0x20202020 (0000ms, 0232ms total)
T1888 023:009 JLINK_ReadReg(FPS21)  returns 0x21212121 (0000ms, 0232ms total)
T1888 023:009 JLINK_ReadReg(FPS22)  returns 0x22222222 (0000ms, 0232ms total)
T1888 023:009 JLINK_ReadReg(FPS23)  returns 0x23232323 (0000ms, 0232ms total)
T1888 023:009 JLINK_ReadReg(FPS24)  returns 0x24242424 (0000ms, 0232ms total)
T1888 023:009 JLINK_ReadReg(FPS25)  returns 0x25252525 (0000ms, 0232ms total)
T1888 023:009 JLINK_ReadReg(FPS26)  returns 0x26262626 (0000ms, 0232ms total)
T1888 023:009 JLINK_ReadReg(FPS27)  returns 0x27272727 (0000ms, 0232ms total)
T1888 023:009 JLINK_ReadReg(FPS28)  returns 0x28282828 (0000ms, 0232ms total)
T1888 023:009 JLINK_ReadReg(FPS29)  returns 0x29292929 (0000ms, 0232ms total)
T1888 023:009 JLINK_ReadReg(FPS30)  returns 0x30303030 (0000ms, 0232ms total)
T1888 023:009 JLINK_ReadReg(FPS31)  returns 0x31313131 (0000ms, 0232ms total)
T1328 023:009 JLINK_ReadMem (0x200018E4, 0x0004 Bytes, ...) -- CPU_ReadMem(64 bytes @ 0x200018C0) -- Updating C cache (64 bytes @ 0x200018C0) -- Read from C cache (4 bytes @ 0x200018E4) - Data: 13 A4 00 08  returns 0x00 (0001ms, 0233ms total)
T1328 023:020 JLINK_ReadMem (0x20001914, 0x0004 Bytes, ...) -- CPU_ReadMem(64 bytes @ 0x20001900) -- Updating C cache (64 bytes @ 0x20001900) -- Read from C cache (4 bytes @ 0x20001914) - Data: 00 00 00 00  returns 0x00 (0001ms, 0234ms total)
T1328 023:022 JLINK_ReadMemU32(0xE0001004, 0x0001 Items, ...) -- CPU_ReadMem(4 bytes @ 0xE0001004) - Data: B0 A6 61 15  returns 0x01 (0000ms, 0234ms total)
T1328 023:039 JLINK_ReadMem (0x2000002D, 0x0001 Bytes, ...) -- CPU_ReadMem(64 bytes @ 0x20000000) -- Updating C cache (64 bytes @ 0x20000000) -- Read from C cache (1 bytes @ 0x2000002D) - Data: 02  returns 0x00 (0001ms, 0235ms total)
T1888 029:686 JLINK_ReadMem (0x0800045A, 0x0002 Bytes, ...) -- CPU_ReadMem(64 bytes @ 0x08000440) -- Updating C cache (64 bytes @ 0x08000440) -- Read from C cache (2 bytes @ 0x0800045A) - Data: 9F ED  returns 0x00 (0001ms, 0236ms total)
T1888 029:687 JLINK_ReadMem (0x0800045C, 0x003C Bytes, ...) -- CPU_ReadMem(64 bytes @ 0x08000480) -- Updating C cache (64 bytes @ 0x08000480) -- Read from C cache (60 bytes @ 0x0800045C) - Data: 28 0A 05 F0 2D FE 21 E0 2D 48 90 ED 05 0A BD EE ...  returns 0x00 (0001ms, 0237ms total)
T1888 029:688 JLINK_Step() -- Read from C cache (2 bytes @ 0x0800045A) -- CPU_ReadMem(4 bytes @ 0xE000ED18) -- CPU_WriteMem(4 bytes @ 0xE000ED18) -- CPU_ReadMem(4 bytes @ 0xE000ED18) -- CPU_WriteMem(4 bytes @ 0xE000ED18) -- Read from C cache (2 bytes @ 0x0800045C) -- Not simulated -- CPU_WriteMem(4 bytes @ 0xE0002008) -- CPU_WriteMem(4 bytes @ 0xE000200C)  returns 0x00 (0006ms, 0243ms total)
T1888 029:695 JLINK_ReadReg(R15 (PC))  returns 0x0800045E (0000ms, 0244ms total)
T1888 029:695 JLINK_ReadReg(XPSR)  returns 0x61000000 (0000ms, 0244ms total)
T1888 029:695 JLINK_SetBPEx(Addr = 0x08000462, Type = 0xFFFFFFF2)  returns 0x00000005 (0000ms, 0244ms total)
T1888 029:695 JLINK_SetBPEx(Addr = 0x08004D52, Type = 0xFFFFFFF2)  returns 0x00000006 (0000ms, 0244ms total)
T1888 029:695 JLINK_SetBPEx(Addr = 0x0800045A, Type = 0xFFFFFFF2)  returns 0x00000007 (0000ms, 0244ms total)
T1888 029:695 JLINK_Go() -- CPU_WriteMem(4 bytes @ 0xE0002000) -- CPU_WriteMem(4 bytes @ 0xE0002000) -- CPU_WriteMem(4 bytes @ 0xE0002000) -- CPU_ReadMem(4 bytes @ 0xE0001000) -- CPU_WriteMem(4 bytes @ 0xE0002008) -- CPU_WriteMem(4 bytes @ 0xE000200C) -- CPU_WriteMem(4 bytes @ 0xE0002010) (0003ms, 0247ms total)
T1888 029:800 JLINK_IsHalted()  returns TRUE (0002ms, 0249ms total)
T1888 029:802 JLINK_Halt()  returns 0x00 (0000ms, 0247ms total)
T1888 029:802 JLINK_IsHalted()  returns TRUE (0000ms, 0247ms total)
T1888 029:802 JLINK_IsHalted()  returns TRUE (0000ms, 0247ms total)
T1888 029:803 JLINK_IsHalted()  returns TRUE (0000ms, 0247ms total)
T1888 029:803 JLINK_ReadReg(R15 (PC))  returns 0x08000462 (0000ms, 0247ms total)
T1888 029:803 JLINK_ReadReg(XPSR)  returns 0x41000000 (0000ms, 0247ms total)
T1888 029:803 JLINK_ClrBPEx(BPHandle = 0x00000005)  returns 0x00 (0000ms, 0247ms total)
T1888 029:803 JLINK_ClrBPEx(BPHandle = 0x00000006)  returns 0x00 (0000ms, 0247ms total)
T1888 029:803 JLINK_ClrBPEx(BPHandle = 0x00000007)  returns 0x00 (0000ms, 0247ms total)
T1888 029:803 JLINK_ReadMemU32(0xE000ED30, 0x0001 Items, ...) -- CPU_ReadMem(4 bytes @ 0xE000ED30) - Data: 03 00 00 00  returns 0x01 (0000ms, 0247ms total)
T1888 029:803 JLINK_ReadMemU32(0xE0001028, 0x0001 Items, ...) -- CPU_ReadMem(4 bytes @ 0xE0001028) - Data: 00 00 00 00  returns 0x01 (0000ms, 0247ms total)
T1888 029:803 JLINK_ReadMemU32(0xE0001038, 0x0001 Items, ...) -- CPU_ReadMem(4 bytes @ 0xE0001038) - Data: 00 02 00 00  returns 0x01 (0001ms, 0248ms total)
T1888 029:804 JLINK_ReadMemU32(0xE0001048, 0x0001 Items, ...) -- CPU_ReadMem(4 bytes @ 0xE0001048) - Data: 00 00 00 00  returns 0x01 (0000ms, 0248ms total)
T1888 029:804 JLINK_ReadMemU32(0xE0001058, 0x0001 Items, ...) -- CPU_ReadMem(4 bytes @ 0xE0001058) - Data: 00 00 00 00  returns 0x01 (0001ms, 0249ms total)
T1888 029:805 JLINK_ReadReg(R0)  returns 0x00000000 (0000ms, 0249ms total)
T1888 029:805 JLINK_ReadReg(R1)  returns 0x2000619C (0000ms, 0249ms total)
T1888 029:805 JLINK_ReadReg(R2)  returns 0xFFFFFFBF (0000ms, 0249ms total)
T1888 029:805 JLINK_ReadReg(R3)  returns 0x00000080 (0000ms, 0249ms total)
T1888 029:805 JLINK_ReadReg(R4)  returns 0x00000000 (0000ms, 0249ms total)
T1888 029:805 JLINK_ReadReg(R5)  returns 0x00000000 (0000ms, 0249ms total)
T1888 029:805 JLINK_ReadReg(R6)  returns 0x06060606 (0000ms, 0249ms total)
T1888 029:805 JLINK_ReadReg(R7)  returns 0x07070707 (0000ms, 0249ms total)
T1888 029:805 JLINK_ReadReg(R8)  returns 0x08080808 (0000ms, 0249ms total)
T1888 029:805 JLINK_ReadReg(R9)  returns 0x09090909 (0000ms, 0249ms total)
T1888 029:805 JLINK_ReadReg(R10)  returns 0x10101010 (0000ms, 0249ms total)
T1888 029:805 JLINK_ReadReg(R11)  returns 0x11111111 (0000ms, 0249ms total)
T1888 029:805 JLINK_ReadReg(R12)  returns 0x00000150 (0000ms, 0249ms total)
T1888 029:805 JLINK_ReadReg(R13 (SP))  returns 0x200018E0 (0000ms, 0249ms total)
T1888 029:805 JLINK_ReadReg(R14)  returns 0x0800C4AF (0000ms, 0249ms total)
T1888 029:805 JLINK_ReadReg(R15 (PC))  returns 0x08000462 (0000ms, 0249ms total)
T1888 029:805 JLINK_ReadReg(XPSR)  returns 0x41000000 (0000ms, 0249ms total)
T1888 029:805 JLINK_ReadReg(MSP)  returns 0x200085A8 (0000ms, 0249ms total)
T1888 029:805 JLINK_ReadReg(PSP)  returns 0x200018E0 (0000ms, 0249ms total)
T1888 029:805 JLINK_ReadReg(CFBP)  returns 0x06000000 (0000ms, 0249ms total)
T1888 029:805 JLINK_ReadReg(FPSCR)  returns 0x00000000 (0005ms, 0254ms total)
T1888 029:810 JLINK_ReadReg(FPS0)  returns 0x00000000 (0000ms, 0254ms total)
T1888 029:810 JLINK_ReadReg(FPS1)  returns 0x01010101 (0000ms, 0254ms total)
T1888 029:810 JLINK_ReadReg(FPS2)  returns 0x02020202 (0000ms, 0254ms total)
T1888 029:810 JLINK_ReadReg(FPS3)  returns 0x03030303 (0000ms, 0254ms total)
T1888 029:810 JLINK_ReadReg(FPS4)  returns 0x04040404 (0000ms, 0254ms total)
T1888 029:810 JLINK_ReadReg(FPS5)  returns 0x05050505 (0000ms, 0254ms total)
T1888 029:810 JLINK_ReadReg(FPS6)  returns 0x06060606 (0000ms, 0254ms total)
T1888 029:810 JLINK_ReadReg(FPS7)  returns 0x07070707 (0000ms, 0254ms total)
T1888 029:810 JLINK_ReadReg(FPS8)  returns 0x08080808 (0000ms, 0254ms total)
T1888 029:810 JLINK_ReadReg(FPS9)  returns 0x09090909 (0000ms, 0254ms total)
T1888 029:810 JLINK_ReadReg(FPS10)  returns 0x10101010 (0000ms, 0254ms total)
T1888 029:810 JLINK_ReadReg(FPS11)  returns 0x11111111 (0000ms, 0254ms total)
T1888 029:810 JLINK_ReadReg(FPS12)  returns 0x12121212 (0000ms, 0254ms total)
T1888 029:810 JLINK_ReadReg(FPS13)  returns 0x13131313 (0000ms, 0254ms total)
T1888 029:810 JLINK_ReadReg(FPS14)  returns 0x14141414 (0000ms, 0254ms total)
T1888 029:810 JLINK_ReadReg(FPS15)  returns 0x15151515 (0000ms, 0254ms total)
T1888 029:810 JLINK_ReadReg(FPS16)  returns 0x16161616 (0000ms, 0254ms total)
T1888 029:810 JLINK_ReadReg(FPS17)  returns 0x17171717 (0000ms, 0254ms total)
T1888 029:810 JLINK_ReadReg(FPS18)  returns 0x18181818 (0000ms, 0254ms total)
T1888 029:810 JLINK_ReadReg(FPS19)  returns 0x19191919 (0000ms, 0254ms total)
T1888 029:810 JLINK_ReadReg(FPS20)  returns 0x20202020 (0000ms, 0254ms total)
T1888 029:810 JLINK_ReadReg(FPS21)  returns 0x21212121 (0000ms, 0254ms total)
T1888 029:810 JLINK_ReadReg(FPS22)  returns 0x22222222 (0000ms, 0254ms total)
T1888 029:810 JLINK_ReadReg(FPS23)  returns 0x23232323 (0000ms, 0254ms total)
T1888 029:810 JLINK_ReadReg(FPS24)  returns 0x24242424 (0000ms, 0254ms total)
T1888 029:810 JLINK_ReadReg(FPS25)  returns 0x25252525 (0000ms, 0254ms total)
T1888 029:810 JLINK_ReadReg(FPS26)  returns 0x26262626 (0000ms, 0254ms total)
T1888 029:810 JLINK_ReadReg(FPS27)  returns 0x27272727 (0001ms, 0255ms total)
T1888 029:811 JLINK_ReadReg(FPS28)  returns 0x28282828 (0000ms, 0255ms total)
T1888 029:811 JLINK_ReadReg(FPS29)  returns 0x29292929 (0000ms, 0255ms total)
T1888 029:811 JLINK_ReadReg(FPS30)  returns 0x30303030 (0000ms, 0255ms total)
T1888 029:811 JLINK_ReadReg(FPS31)  returns 0x31313131 (0000ms, 0255ms total)
T1328 029:811 JLINK_ReadMem (0x200018E4, 0x0004 Bytes, ...) -- CPU_ReadMem(64 bytes @ 0x200018C0) -- Updating C cache (64 bytes @ 0x200018C0) -- Read from C cache (4 bytes @ 0x200018E4) - Data: 13 A4 00 08  returns 0x00 (0001ms, 0256ms total)
T1328 029:818 JLINK_ReadMem (0x200018F0, 0x0004 Bytes, ...) -- Read from C cache (4 bytes @ 0x200018F0) - Data: 00 00 00 00  returns 0x00 (0000ms, 0256ms total)
T1328 029:819 JLINK_ReadMemU32(0xE0001004, 0x0001 Items, ...) -- CPU_ReadMem(4 bytes @ 0xE0001004) - Data: 48 E0 61 15  returns 0x01 (0000ms, 0256ms total)
T1328 029:822 JLINK_ReadMem (0x2000002D, 0x0001 Bytes, ...) -- CPU_ReadMem(64 bytes @ 0x20000000) -- Updating C cache (64 bytes @ 0x20000000) -- Read from C cache (1 bytes @ 0x2000002D) - Data: 02  returns 0x00 (0001ms, 0257ms total)
T1328 029:826 JLINK_ReadMem (0x08000462, 0x0002 Bytes, ...) -- CPU_ReadMem(64 bytes @ 0x08000440) -- Updating C cache (64 bytes @ 0x08000440) -- Read from C cache (2 bytes @ 0x08000462) - Data: 21 E0  returns 0x00 (0001ms, 0258ms total)
T1328 029:827 JLINK_ReadMem (0x08000464, 0x003C Bytes, ...) -- CPU_ReadMem(64 bytes @ 0x08000480) -- Updating C cache (64 bytes @ 0x08000480) -- Read from C cache (60 bytes @ 0x08000464) - Data: 2D 48 90 ED 05 0A BD EE C0 0A 10 EE 10 4A 90 ED ...  returns 0x00 (0001ms, 0259ms total)
T1888 047:337 JLINK_SetBPEx(Addr = 0x08004D52, Type = 0xFFFFFFF2)  returns 0x00000008 (0000ms, 0259ms total)
T1888 047:337 JLINK_SetBPEx(Addr = 0x0800045A, Type = 0xFFFFFFF2)  returns 0x00000009 (0000ms, 0259ms total)
T1888 047:337 JLINK_SetBPEx(Addr = 0x0800029E, Type = 0xFFFFFFF2)  returns 0x0000000A (0000ms, 0259ms total)
T1888 047:337 JLINK_Go() -- CPU_WriteMem(4 bytes @ 0xE0002000) -- CPU_WriteMem(4 bytes @ 0xE0002000) -- CPU_WriteMem(4 bytes @ 0xE0002000) -- CPU_ReadMem(4 bytes @ 0xE0001000) -- CPU_WriteMem(4 bytes @ 0xE0002008) -- CPU_WriteMem(4 bytes @ 0xE000200C) -- CPU_WriteMem(4 bytes @ 0xE0002010) (0004ms, 0263ms total)
T1888 047:441 JLINK_IsHalted()  returns TRUE (0003ms, 0266ms total)
T1888 047:444 JLINK_Halt()  returns 0x00 (0000ms, 0263ms total)
T1888 047:444 JLINK_IsHalted()  returns TRUE (0000ms, 0263ms total)
T1888 047:444 JLINK_IsHalted()  returns TRUE (0000ms, 0263ms total)
T1888 047:444 JLINK_IsHalted()  returns TRUE (0000ms, 0263ms total)
T1888 047:444 JLINK_ReadReg(R15 (PC))  returns 0x0800029E (0000ms, 0263ms total)
T1888 047:444 JLINK_ReadReg(XPSR)  returns 0x01000000 (0000ms, 0263ms total)
T1888 047:444 JLINK_ClrBPEx(BPHandle = 0x00000008)  returns 0x00 (0000ms, 0263ms total)
T1888 047:444 JLINK_ClrBPEx(BPHandle = 0x00000009)  returns 0x00 (0000ms, 0263ms total)
T1888 047:444 JLINK_ClrBPEx(BPHandle = 0x0000000A)  returns 0x00 (0000ms, 0263ms total)
T1888 047:444 JLINK_ReadMemU32(0xE000ED30, 0x0001 Items, ...) -- CPU_ReadMem(4 bytes @ 0xE000ED30) - Data: 03 00 00 00  returns 0x01 (0000ms, 0263ms total)
T1888 047:444 JLINK_ReadMemU32(0xE0001028, 0x0001 Items, ...) -- CPU_ReadMem(4 bytes @ 0xE0001028) - Data: 00 00 00 00  returns 0x01 (0001ms, 0264ms total)
T1888 047:445 JLINK_ReadMemU32(0xE0001038, 0x0001 Items, ...) -- CPU_ReadMem(4 bytes @ 0xE0001038) - Data: 00 02 00 00  returns 0x01 (0000ms, 0264ms total)
T1888 047:445 JLINK_ReadMemU32(0xE0001048, 0x0001 Items, ...) -- CPU_ReadMem(4 bytes @ 0xE0001048) - Data: 00 00 00 00  returns 0x01 (0001ms, 0265ms total)
T1888 047:446 JLINK_ReadMemU32(0xE0001058, 0x0001 Items, ...) -- CPU_ReadMem(4 bytes @ 0xE0001058) - Data: 00 00 00 00  returns 0x01 (0000ms, 0265ms total)
T1888 047:446 JLINK_ReadReg(R0)  returns 0x00000000 (0000ms, 0265ms total)
T1888 047:446 JLINK_ReadReg(R1)  returns 0x01010101 (0000ms, 0265ms total)
T1888 047:446 JLINK_ReadReg(R2)  returns 0x02020202 (0000ms, 0265ms total)
T1888 047:446 JLINK_ReadReg(R3)  returns 0x03030303 (0000ms, 0265ms total)
T1888 047:446 JLINK_ReadReg(R4)  returns 0x04040404 (0000ms, 0265ms total)
T1888 047:446 JLINK_ReadReg(R5)  returns 0x05050505 (0000ms, 0265ms total)
T1888 047:446 JLINK_ReadReg(R6)  returns 0x06060606 (0000ms, 0265ms total)
T1888 047:446 JLINK_ReadReg(R7)  returns 0x07070707 (0000ms, 0265ms total)
T1888 047:446 JLINK_ReadReg(R8)  returns 0x08080808 (0000ms, 0265ms total)
T1888 047:446 JLINK_ReadReg(R9)  returns 0x09090909 (0000ms, 0265ms total)
T1888 047:446 JLINK_ReadReg(R10)  returns 0x10101010 (0000ms, 0265ms total)
T1888 047:446 JLINK_ReadReg(R11)  returns 0x11111111 (0000ms, 0265ms total)
T1888 047:446 JLINK_ReadReg(R12)  returns 0x12121212 (0000ms, 0265ms total)
T1888 047:446 JLINK_ReadReg(R13 (SP))  returns 0x200058E0 (0000ms, 0265ms total)
T1888 047:446 JLINK_ReadReg(R14)  returns 0x0800A413 (0000ms, 0265ms total)
T1888 047:446 JLINK_ReadReg(R15 (PC))  returns 0x0800029E (0000ms, 0265ms total)
T1888 047:446 JLINK_ReadReg(XPSR)  returns 0x01000000 (0000ms, 0265ms total)
T1888 047:446 JLINK_ReadReg(MSP)  returns 0x200085A8 (0000ms, 0265ms total)
T1888 047:446 JLINK_ReadReg(PSP)  returns 0x200058E0 (0000ms, 0265ms total)
T1888 047:446 JLINK_ReadReg(CFBP)  returns 0x06000000 (0000ms, 0265ms total)
T1888 047:446 JLINK_ReadReg(FPSCR)  returns 0x00000000 (0005ms, 0270ms total)
T1888 047:451 JLINK_ReadReg(FPS0)  returns 0x00000000 (0000ms, 0270ms total)
T1888 047:451 JLINK_ReadReg(FPS1)  returns 0x01010101 (0000ms, 0270ms total)
T1888 047:451 JLINK_ReadReg(FPS2)  returns 0x02020202 (0000ms, 0270ms total)
T1888 047:451 JLINK_ReadReg(FPS3)  returns 0x03030303 (0000ms, 0270ms total)
T1888 047:451 JLINK_ReadReg(FPS4)  returns 0x04040404 (0000ms, 0270ms total)
T1888 047:451 JLINK_ReadReg(FPS5)  returns 0x05050505 (0000ms, 0270ms total)
T1888 047:451 JLINK_ReadReg(FPS6)  returns 0x06060606 (0000ms, 0270ms total)
T1888 047:451 JLINK_ReadReg(FPS7)  returns 0x07070707 (0000ms, 0270ms total)
T1888 047:451 JLINK_ReadReg(FPS8)  returns 0x08080808 (0000ms, 0270ms total)
T1888 047:451 JLINK_ReadReg(FPS9)  returns 0x09090909 (0000ms, 0270ms total)
T1888 047:451 JLINK_ReadReg(FPS10)  returns 0x10101010 (0000ms, 0270ms total)
T1888 047:451 JLINK_ReadReg(FPS11)  returns 0x11111111 (0000ms, 0270ms total)
T1888 047:451 JLINK_ReadReg(FPS12)  returns 0x12121212 (0000ms, 0270ms total)
T1888 047:451 JLINK_ReadReg(FPS13)  returns 0x13131313 (0000ms, 0270ms total)
T1888 047:451 JLINK_ReadReg(FPS14)  returns 0x14141414 (0000ms, 0270ms total)
T1888 047:451 JLINK_ReadReg(FPS15)  returns 0x15151515 (0001ms, 0271ms total)
T1888 047:452 JLINK_ReadReg(FPS16)  returns 0x16161616 (0000ms, 0271ms total)
T1888 047:452 JLINK_ReadReg(FPS17)  returns 0x17171717 (0000ms, 0271ms total)
T1888 047:452 JLINK_ReadReg(FPS18)  returns 0x18181818 (0000ms, 0271ms total)
T1888 047:452 JLINK_ReadReg(FPS19)  returns 0x19191919 (0000ms, 0271ms total)
T1888 047:452 JLINK_ReadReg(FPS20)  returns 0x20202020 (0000ms, 0271ms total)
T1888 047:452 JLINK_ReadReg(FPS21)  returns 0x21212121 (0000ms, 0271ms total)
T1888 047:452 JLINK_ReadReg(FPS22)  returns 0x22222222 (0000ms, 0271ms total)
T1888 047:452 JLINK_ReadReg(FPS23)  returns 0x23232323 (0000ms, 0271ms total)
T1888 047:452 JLINK_ReadReg(FPS24)  returns 0x24242424 (0000ms, 0271ms total)
T1888 047:452 JLINK_ReadReg(FPS25)  returns 0x25252525 (0000ms, 0271ms total)
T1888 047:452 JLINK_ReadReg(FPS26)  returns 0x26262626 (0000ms, 0271ms total)
T1888 047:452 JLINK_ReadReg(FPS27)  returns 0x27272727 (0000ms, 0271ms total)
T1888 047:452 JLINK_ReadReg(FPS28)  returns 0x28282828 (0000ms, 0271ms total)
T1888 047:452 JLINK_ReadReg(FPS29)  returns 0x29292929 (0000ms, 0271ms total)
T1888 047:452 JLINK_ReadReg(FPS30)  returns 0x30303030 (0000ms, 0271ms total)
T1888 047:452 JLINK_ReadReg(FPS31)  returns 0x31313131 (0000ms, 0271ms total)
T1328 047:452 JLINK_ReadMem (0x200058E4, 0x0004 Bytes, ...) -- CPU_ReadMem(64 bytes @ 0x200058C0) -- Updating C cache (64 bytes @ 0x200058C0) -- Read from C cache (4 bytes @ 0x200058E4) - Data: 13 A4 00 08  returns 0x00 (0001ms, 0272ms total)
T1328 047:454 JLINK_ReadMem (0x20000014, 0x0004 Bytes, ...) -- CPU_ReadMem(64 bytes @ 0x20000000) -- Updating C cache (64 bytes @ 0x20000000) -- Read from C cache (4 bytes @ 0x20000014) - Data: 00 00 00 00  returns 0x00 (0001ms, 0273ms total)
T1328 047:455 JLINK_ReadMem (0x200058E0, 0x0001 Bytes, ...) -- Read from C cache (1 bytes @ 0x200058E0) - Data: 03  returns 0x00 (0000ms, 0273ms total)
T1328 047:456 JLINK_ReadMem (0x00000000, 0x0004 Bytes, ...) -- CPU_ReadMem(4 bytes @ 0x00000004) -- CPU_ReadMem(64 bytes @ 0x08000000) -- Updating C cache (64 bytes @ 0x08000000) -- Read from C cache (4 bytes @ 0x08000000) - Data: 38 86 00 20  returns 0x00 (0002ms, 0275ms total)
T1328 047:459 JLINK_ReadMemU32(0xE0001004, 0x0001 Items, ...) -- CPU_ReadMem(4 bytes @ 0xE0001004) - Data: 3C F0 61 15  returns 0x01 (0000ms, 0275ms total)
T1328 047:462 JLINK_ReadMem (0x2000002D, 0x0001 Bytes, ...) -- Read from C cache (1 bytes @ 0x2000002D) - Data: 02  returns 0x00 (0000ms, 0275ms total)
T1328 047:465 JLINK_ReadMem (0x0800029E, 0x0002 Bytes, ...) -- CPU_ReadMem(64 bytes @ 0x08000280) -- Updating C cache (64 bytes @ 0x08000280) -- Read from C cache (2 bytes @ 0x0800029E) - Data: 9D F8  returns 0x00 (0001ms, 0276ms total)
T1328 047:466 JLINK_ReadMem (0x080002A0, 0x003C Bytes, ...) -- CPU_ReadMem(64 bytes @ 0x080002C0) -- Updating C cache (64 bytes @ 0x080002C0) -- Read from C cache (60 bytes @ 0x080002A0) - Data: 00 00 00 90 00 BF 8E 48 00 68 38 B9 6A 46 00 21 ...  returns 0x00 (0001ms, 0277ms total)
T1888 055:090 JLINK_Step() -- Read from C cache (2 bytes @ 0x0800029E) -- Read from C cache (2 bytes @ 0x080002A0) -- Not simulated -- CPU_WriteMem(4 bytes @ 0xE0002008) -- CPU_WriteMem(4 bytes @ 0xE000200C) -- CPU_WriteMem(4 bytes @ 0xE0002010)  returns 0x00 (0007ms, 0284ms total)
T1888 055:097 JLINK_ReadReg(R15 (PC))  returns 0x080002A2 (0000ms, 0284ms total)
T1888 055:097 JLINK_ReadReg(XPSR)  returns 0x01000000 (0000ms, 0284ms total)
T1888 055:097 JLINK_Step() -- CPU_ReadMem(64 bytes @ 0x08000280) -- Updating C cache (64 bytes @ 0x08000280) -- Read from C cache (2 bytes @ 0x080002A2) -- CPU_ReadMem(4 bytes @ 0xE0001004) -- CPU_WriteMem(4 bytes @ 0x200058E0) -- Simulated  returns 0x00 (0001ms, 0285ms total)
T1888 055:098 JLINK_ReadReg(R15 (PC))  returns 0x080002A4 (0000ms, 0285ms total)
T1888 055:098 JLINK_ReadReg(XPSR)  returns 0x01000000 (0000ms, 0285ms total)
T1888 055:098 JLINK_ReadReg(R0)  returns 0x00000003 (0000ms, 0285ms total)
T1888 055:098 JLINK_ReadReg(R1)  returns 0x01010101 (0000ms, 0285ms total)
T1888 055:098 JLINK_ReadReg(R2)  returns 0x02020202 (0000ms, 0285ms total)
T1888 055:098 JLINK_ReadReg(R3)  returns 0x03030303 (0000ms, 0285ms total)
T1888 055:098 JLINK_ReadReg(R4)  returns 0x04040404 (0000ms, 0285ms total)
T1888 055:098 JLINK_ReadReg(R5)  returns 0x05050505 (0000ms, 0285ms total)
T1888 055:098 JLINK_ReadReg(R6)  returns 0x06060606 (0000ms, 0285ms total)
T1888 055:098 JLINK_ReadReg(R7)  returns 0x07070707 (0000ms, 0285ms total)
T1888 055:098 JLINK_ReadReg(R8)  returns 0x08080808 (0000ms, 0285ms total)
T1888 055:098 JLINK_ReadReg(R9)  returns 0x09090909 (0000ms, 0285ms total)
T1888 055:098 JLINK_ReadReg(R10)  returns 0x10101010 (0000ms, 0285ms total)
T1888 055:098 JLINK_ReadReg(R11)  returns 0x11111111 (0000ms, 0285ms total)
T1888 055:098 JLINK_ReadReg(R12)  returns 0x12121212 (0000ms, 0285ms total)
T1888 055:098 JLINK_ReadReg(R13 (SP))  returns 0x200058E0 (0000ms, 0285ms total)
T1888 055:098 JLINK_ReadReg(R14)  returns 0x0800A413 (0000ms, 0285ms total)
T1888 055:098 JLINK_ReadReg(R15 (PC))  returns 0x080002A4 (0000ms, 0285ms total)
T1888 055:098 JLINK_ReadReg(XPSR)  returns 0x01000000 (0000ms, 0285ms total)
T1888 055:098 JLINK_ReadReg(MSP)  returns 0x200085A8 (0000ms, 0285ms total)
T1888 055:098 JLINK_ReadReg(PSP)  returns 0x200058E0 (0000ms, 0285ms total)
T1888 055:098 JLINK_ReadReg(CFBP)  returns 0x06000000 (0000ms, 0285ms total)
T1888 055:098 JLINK_ReadReg(FPSCR)  returns 0x00000000 (0005ms, 0290ms total)
T1888 055:103 JLINK_ReadReg(FPS0)  returns 0x00000000 (0000ms, 0290ms total)
T1888 055:103 JLINK_ReadReg(FPS1)  returns 0x01010101 (0000ms, 0290ms total)
T1888 055:103 JLINK_ReadReg(FPS2)  returns 0x02020202 (0000ms, 0290ms total)
T1888 055:103 JLINK_ReadReg(FPS3)  returns 0x03030303 (0000ms, 0290ms total)
T1888 055:103 JLINK_ReadReg(FPS4)  returns 0x04040404 (0000ms, 0290ms total)
T1888 055:103 JLINK_ReadReg(FPS5)  returns 0x05050505 (0000ms, 0290ms total)
T1888 055:103 JLINK_ReadReg(FPS6)  returns 0x06060606 (0000ms, 0290ms total)
T1888 055:103 JLINK_ReadReg(FPS7)  returns 0x07070707 (0000ms, 0290ms total)
T1888 055:103 JLINK_ReadReg(FPS8)  returns 0x08080808 (0000ms, 0290ms total)
T1888 055:103 JLINK_ReadReg(FPS9)  returns 0x09090909 (0000ms, 0290ms total)
T1888 055:103 JLINK_ReadReg(FPS10)  returns 0x10101010 (0000ms, 0290ms total)
T1888 055:103 JLINK_ReadReg(FPS11)  returns 0x11111111 (0000ms, 0290ms total)
T1888 055:103 JLINK_ReadReg(FPS12)  returns 0x12121212 (0000ms, 0290ms total)
T1888 055:103 JLINK_ReadReg(FPS13)  returns 0x13131313 (0000ms, 0290ms total)
T1888 055:103 JLINK_ReadReg(FPS14)  returns 0x14141414 (0000ms, 0290ms total)
T1888 055:103 JLINK_ReadReg(FPS15)  returns 0x15151515 (0000ms, 0290ms total)
T1888 055:103 JLINK_ReadReg(FPS16)  returns 0x16161616 (0000ms, 0290ms total)
T1888 055:103 JLINK_ReadReg(FPS17)  returns 0x17171717 (0000ms, 0290ms total)
T1888 055:103 JLINK_ReadReg(FPS18)  returns 0x18181818 (0000ms, 0290ms total)
T1888 055:103 JLINK_ReadReg(FPS19)  returns 0x19191919 (0000ms, 0290ms total)
T1888 055:103 JLINK_ReadReg(FPS20)  returns 0x20202020 (0000ms, 0290ms total)
T1888 055:103 JLINK_ReadReg(FPS21)  returns 0x21212121 (0000ms, 0290ms total)
T1888 055:103 JLINK_ReadReg(FPS22)  returns 0x22222222 (0000ms, 0290ms total)
T1888 055:103 JLINK_ReadReg(FPS23)  returns 0x23232323 (0000ms, 0290ms total)
T1888 055:103 JLINK_ReadReg(FPS24)  returns 0x24242424 (0000ms, 0290ms total)
T1888 055:103 JLINK_ReadReg(FPS25)  returns 0x25252525 (0000ms, 0290ms total)
T1888 055:103 JLINK_ReadReg(FPS26)  returns 0x26262626 (0000ms, 0290ms total)
T1888 055:103 JLINK_ReadReg(FPS27)  returns 0x27272727 (0000ms, 0290ms total)
T1888 055:103 JLINK_ReadReg(FPS28)  returns 0x28282828 (0000ms, 0290ms total)
T1888 055:103 JLINK_ReadReg(FPS29)  returns 0x29292929 (0000ms, 0290ms total)
T1888 055:103 JLINK_ReadReg(FPS30)  returns 0x30303030 (0000ms, 0290ms total)
T1888 055:104 JLINK_ReadReg(FPS31)  returns 0x31313131 (0000ms, 0291ms total)
T1328 055:104 JLINK_ReadMem (0x200058E4, 0x0004 Bytes, ...) -- CPU_ReadMem(64 bytes @ 0x200058C0) -- Updating C cache (64 bytes @ 0x200058C0) -- Read from C cache (4 bytes @ 0x200058E4) - Data: 13 A4 00 08  returns 0x00 (0001ms, 0292ms total)
T1328 055:105 JLINK_ReadMem (0x20000014, 0x0004 Bytes, ...) -- CPU_ReadMem(64 bytes @ 0x20000000) -- Updating C cache (64 bytes @ 0x20000000) -- Read from C cache (4 bytes @ 0x20000014) - Data: 00 00 00 00  returns 0x00 (0001ms, 0293ms total)
T1328 055:106 JLINK_ReadMem (0x200058E0, 0x0001 Bytes, ...) -- Read from C cache (1 bytes @ 0x200058E0) - Data: 03  returns 0x00 (0000ms, 0293ms total)
T1328 055:106 JLINK_ReadMem (0x00000000, 0x0004 Bytes, ...) -- CPU_ReadMem(4 bytes @ 0x00000004) -- CPU_ReadMem(64 bytes @ 0x08000000) -- Updating C cache (64 bytes @ 0x08000000) -- Read from C cache (4 bytes @ 0x08000000) - Data: 38 86 00 20  returns 0x00 (0002ms, 0295ms total)
T1328 055:108 JLINK_ReadMemU32(0xE0001004, 0x0001 Items, ...) - Data: 40 F0 61 15  returns 0x01 (0000ms, 0295ms total)
T1328 055:111 JLINK_ReadMem (0x2000002D, 0x0001 Bytes, ...) -- Read from C cache (1 bytes @ 0x2000002D) - Data: 02  returns 0x00 (0000ms, 0295ms total)
T1328 055:114 JLINK_ReadMem (0x080002A4, 0x003C Bytes, ...) -- CPU_ReadMem(64 bytes @ 0x080002C0) -- Updating C cache (64 bytes @ 0x080002C0) -- Read from C cache (60 bytes @ 0x080002A4) - Data: 00 BF 8E 48 00 68 38 B9 6A 46 00 21 8C 48 00 68 ...  returns 0x00 (0001ms, 0296ms total)
T1888 055:969 JLINK_Step() -- Read from C cache (2 bytes @ 0x080002A4) -- Simulated  returns 0x00 (0000ms, 0296ms total)
T1888 055:969 JLINK_ReadReg(R15 (PC))  returns 0x080002A6 (0001ms, 0297ms total)
T1888 055:970 JLINK_ReadReg(XPSR)  returns 0x01000000 (0000ms, 0297ms total)
T1888 055:970 JLINK_ReadReg(R0)  returns 0x00000003 (0000ms, 0297ms total)
T1888 055:970 JLINK_ReadReg(R1)  returns 0x01010101 (0000ms, 0297ms total)
T1888 055:970 JLINK_ReadReg(R2)  returns 0x02020202 (0000ms, 0297ms total)
T1888 055:970 JLINK_ReadReg(R3)  returns 0x03030303 (0000ms, 0297ms total)
T1888 055:970 JLINK_ReadReg(R4)  returns 0x04040404 (0000ms, 0297ms total)
T1888 055:970 JLINK_ReadReg(R5)  returns 0x05050505 (0000ms, 0297ms total)
T1888 055:970 JLINK_ReadReg(R6)  returns 0x06060606 (0000ms, 0297ms total)
T1888 055:970 JLINK_ReadReg(R7)  returns 0x07070707 (0000ms, 0297ms total)
T1888 055:970 JLINK_ReadReg(R8)  returns 0x08080808 (0000ms, 0297ms total)
T1888 055:970 JLINK_ReadReg(R9)  returns 0x09090909 (0000ms, 0297ms total)
T1888 055:970 JLINK_ReadReg(R10)  returns 0x10101010 (0000ms, 0297ms total)
T1888 055:970 JLINK_ReadReg(R11)  returns 0x11111111 (0000ms, 0297ms total)
T1888 055:970 JLINK_ReadReg(R12)  returns 0x12121212 (0000ms, 0297ms total)
T1888 055:970 JLINK_ReadReg(R13 (SP))  returns 0x200058E0 (0000ms, 0297ms total)
T1888 055:970 JLINK_ReadReg(R14)  returns 0x0800A413 (0000ms, 0297ms total)
T1888 055:970 JLINK_ReadReg(R15 (PC))  returns 0x080002A6 (0000ms, 0297ms total)
T1888 055:970 JLINK_ReadReg(XPSR)  returns 0x01000000 (0000ms, 0297ms total)
T1888 055:970 JLINK_ReadReg(MSP)  returns 0x200085A8 (0000ms, 0297ms total)
T1888 055:970 JLINK_ReadReg(PSP)  returns 0x200058E0 (0000ms, 0297ms total)
